T0824 4290:672.706   SEGGER J-Link V6.80b Log File
T0824 4290:672.750   DLL Compiled: Jun  5 2020 17:40:22
T0824 4290:672.756   Logging started @ 2020-06-16 02:30
T0824 4290:672.764 JLINK_SetWarnOutHandler(...)
T0824 4290:672.769 - 0.007ms
T0824 4290:672.775 JLINK_OpenEx(...)
T0824 4290:674.056   Firmware: J-Link OB-SAM3U128-V2-NordicSemi compiled Mar 17 2020 14:43:00
T0824 4290:676.921   Hardware: V1.00
T0824 4290:676.934   S/N: 682660746
T0824 4290:676.942   OEM: SEGGER
T0824 4290:676.949   Feature(s): RDI, FlashBP, FlashDL, JFlash, GDB
T0824 4290:678.621   TELNET listener socket opened on port 19021
T0824 4290:681.719   WEBSRV Starting webserver
T0824 4290:681.801   WEBSRV Webserver running on local port 19080
T0824 4290:681.811 - 9.037ms returns "O.K."
T0824 4290:681.824 JLINK_GetEmuCaps()
T0824 4290:681.829 - 0.007ms returns 0xB8EA5A33
T0824 4290:681.836 JLINK_TIF_GetAvailable(...)
T0824 4290:682.230 - 0.401ms
T0824 4290:682.245 JLINK_SetErrorOutHandler(...)
T0824 4290:682.250 - 0.007ms
T0824 4290:682.261 JLINK_ExecCommand("ProjectFile = "C:\work\project\nordic\nRF5SDK160098a08e2\examples\ble_peripheral\ble_app_beacon\pca10040\s132\arm5_no_packs\JLinkSettings.ini"", ...). 
T0824 4290:683.298 - 1.044ms returns 0x00
T0824 4290:684.788 JLINK_ExecCommand("Device = nRF52832_xxAA", ...). 
T0824 4290:686.357   Device "NRF52832_XXAA" selected.
T0824 4290:687.159 - 2.366ms returns 0x00
T0824 4290:687.173 JLINK_ExecCommand("DisableConnectionTimeout", ...). 
T0824 4290:687.183 - 0.005ms returns 0x01
T0824 4290:687.193 JLINK_GetHardwareVersion()
T0824 4290:687.198 - 0.007ms returns 0x2710
T0824 4290:687.204 JLINK_GetDLLVersion()  returns 68002
T0824 4290:687.212 JLINK_GetFirmwareString(...)
T0824 4290:687.217 - 0.007ms
T0824 4290:691.676 JLINK_GetDLLVersion()  returns 68002
T0824 4290:691.694 JLINK_GetCompileDateTime()
T0824 4290:691.699 - 0.007ms
T0824 4290:692.951 JLINK_GetFirmwareString(...)
T0824 4290:692.962 - 0.012ms
T0824 4290:694.218 JLINK_GetHardwareVersion()
T0824 4290:694.227 - 0.011ms returns 0x2710
T0824 4290:700.809 JLINK_TIF_Select(JLINKARM_TIF_SWD)
T0824 4290:703.239 - 2.447ms returns 0x00
T0824 4290:703.272 JLINK_SetSpeed(5000)
T0824 4290:703.718 - 0.472ms
T0824 4290:703.764 JLINK_GetId()
T0824 4290:705.714   InitTarget() start
T0824 4290:705.734    J-Link Script File: Executing InitTarget()
T0824 4290:711.801   InitTarget() end
T0824 4290:714.221   Found SW-DP with ID 0x2BA01477
T0824 4290:719.032   DPIDR: 0x2BA01477
T0824 4290:720.258   Scanning AP map to find all available APs
T0824 4290:723.405   AP[2]: Stopped AP scan as end of AP map has been reached
T0824 4290:724.623   AP[0]: AHB-AP (IDR: 0x24770011)
T0824 4290:725.846   AP[1]: JTAG-AP (IDR: 0x02880000)
T0824 4290:727.053   Iterating through AP map to find AHB-AP to use
T0824 4290:730.159   AP[0]: Core found
T0824 4290:731.401   AP[0]: AHB-AP ROM base: 0xE00FF000
T0824 4290:733.572   CPUID register: 0x410FC241. Implementer code: 0x41 (ARM)
T0824 4290:734.811   Found Cortex-M4 r0p1, Little endian.
T0824 4290:837.550   -- Max. mem block: 0x00004698
T0824 4290:837.624   CPU_ReadMem(4 bytes @ 0xE000EDF0)
T0824 4290:839.139   CPU_WriteMem(4 bytes @ 0xE000EDF0)
T0824 4290:840.145   CPU_ReadMem(4 bytes @ 0xE0002000)
T0824 4290:847.552   FPUnit: 6 code (BP) slots and 2 literal slots
T0824 4290:847.625   CPU_ReadMem(4 bytes @ 0xE000EDFC)
T0824 4290:848.803   CPU_WriteMem(4 bytes @ 0xE000EDFC)
T0824 4290:849.937   CPU_ReadMem(4 bytes @ 0xE0001000)
T0824 4290:851.021   CPU_WriteMem(4 bytes @ 0xE0001000)
T0824 4290:852.235   CPU_ReadMem(4 bytes @ 0xE000ED88)
T0824 4290:853.364   CPU_WriteMem(4 bytes @ 0xE000ED88)
T0824 4290:854.478   CPU_ReadMem(4 bytes @ 0xE000ED88)
T0824 4290:855.542   CPU_WriteMem(4 bytes @ 0xE000ED88)
T0824 4290:862.846   CoreSight components:
T0824 4290:868.491   ROMTbl[0] @ E00FF000
T0824 4290:868.550   CPU_ReadMem(64 bytes @ 0xE00FF000)
T0824 4290:870.360   CPU_ReadMem(32 bytes @ 0xE000EFE0)
T0824 4290:878.023   ROMTbl[0][0]: E000E000, CID: B105E00D, PID: 000BB00C SCS-M7
T0824 4290:878.196   CPU_ReadMem(32 bytes @ 0xE0001FE0)
T0824 4290:885.170   ROMTbl[0][1]: E0001000, CID: B105E00D, PID: 003BB002 DWT
T0824 4290:885.225   CPU_ReadMem(32 bytes @ 0xE0002FE0)
T0824 4290:892.060   ROMTbl[0][2]: E0002000, CID: B105E00D, PID: 002BB003 FPB
T0824 4290:892.150   CPU_ReadMem(32 bytes @ 0xE0000FE0)
T0824 4290:895.423   ROMTbl[0][3]: E0000000, CID: B105E00D, PID: 003BB001 ITM
T0824 4290:895.449   CPU_ReadMem(32 bytes @ 0xE0040FE0)
T0824 4290:898.480   ROMTbl[0][4]: E0040000, CID: B105900D, PID: 000BB9A1 TPIU
T0824 4290:898.505   CPU_ReadMem(32 bytes @ 0xE0041FE0)
T0824 4290:901.517   ROMTbl[0][5]: E0041000, CID: B105900D, PID: 000BB925 ETM
T0824 4290:902.235 - 198.482ms   returns 0x2BA01477
T0824 4290:902.257 JLINK_GetDLLVersion()  returns 68002
T0824 4290:902.266 JLINK_CORE_GetFound()
T0824 4290:902.271 - 0.007ms returns 0xE0000FF
T0824 4290:902.278 JLINK_GetDebugInfo(0x100 = JLINKARM_ROM_TABLE_ADDR_INDEX)
T0824 4290:902.284   Value=0xE00FF000
T0824 4290:902.290 - 0.015ms returns 0x00
T0824 4290:903.732 JLINK_GetDebugInfo(0x100 = JLINKARM_ROM_TABLE_ADDR_INDEX)
T0824 4290:903.750   Value=0xE00FF000
T0824 4290:903.757 - 0.027ms returns 0x00
T0824 4290:903.763 JLINK_GetDebugInfo(0x101 = JLINKARM_DEBUG_INFO_ETM_ADDR_INDEX)
T0824 4290:903.769   Value=0xE0041000
T0824 4290:903.777 - 0.017ms returns 0x00
T0824 4290:903.788   JLINK_ReadMemEx(0xE0041FD0, 0x0020 Bytes, ..., Flags = 0x02000004)
T0824 4290:903.808   CPU_ReadMem(32 bytes @ 0xE0041FD0)
T0824 4290:905.315   Data:  04 00 00 00 00 00 00 00 00 00 00 00 00 00 00 00 ...
T0824 4290:905.335 - 1.550ms returns 0x20
T0824 4290:905.345 JLINK_GetDebugInfo(0x102 = JLINKARM_DEBUG_INFO_MTB_ADDR_INDEX)
T0824 4290:905.351   Value=0x00000000
T0824 4290:905.358 - 0.015ms returns 0x00
T0824 4290:905.364 JLINK_GetDebugInfo(0x103 = JLINKARM_DEBUG_INFO_TPIU_ADDR_INDEX)
T0824 4290:905.369   Value=0xE0040000
T0824 4290:905.375 - 0.013ms returns 0x00
T0824 4290:905.381 JLINK_GetDebugInfo(0x104 = JLINKARM_DEBUG_INFO_ITM_ADDR_INDEX)
T0824 4290:905.385   Value=0xE0000000
T0824 4290:905.392 - 0.013ms returns 0x00
T0824 4290:905.397 JLINK_GetDebugInfo(0x105 = JLINKARM_DEBUG_INFO_DWT_ADDR_INDEX)
T0824 4290:905.402   Value=0xE0001000
T0824 4290:905.409 - 0.013ms returns 0x00
T0824 4290:905.414 JLINK_GetDebugInfo(0x106 = JLINKARM_DEBUG_INFO_FPB_ADDR_INDEX)
T0824 4290:905.419   Value=0xE0002000
T0824 4290:905.425 - 0.013ms returns 0x00
T0824 4290:905.431 JLINK_GetDebugInfo(0x107 = JLINKARM_DEBUG_INFO_NVIC_ADDR_INDEX)
T0824 4290:905.436   Value=0xE000E000
T0824 4290:905.442 - 0.013ms returns 0x00
T0824 4290:905.448 JLINK_GetDebugInfo(0x10C = JLINKARM_DEBUG_INFO_DBG_ADDR_INDEX)
T0824 4290:905.453   Value=0xE000EDF0
T0824 4290:905.459 - 0.013ms returns 0x00
T0824 4290:905.464 JLINK_GetDebugInfo(0x01 = Unknown)
T0824 4290:905.469   Value=0x00000001
T0824 4290:905.476 - 0.013ms returns 0x00
T0824 4290:905.486 JLINK_ReadMemU32(0xE000ED00, 0x0001 Items, ...)
T0824 4290:905.496   CPU_ReadMem(4 bytes @ 0xE000ED00)
T0824 4290:906.686   Data:  41 C2 0F 41
T0824 4290:906.708   Debug reg: CPUID
T0824 4290:906.714 - 1.231ms returns 1
T0824 4290:906.724 JLINK_GetDebugInfo(0x10F = JLINKARM_DEBUG_INFO_HAS_CORTEX_M_SECURITY_EXT_INDEX)
T0824 4290:906.730   Value=0x00000000
T0824 4290:906.737 - 0.014ms returns 0x00
T0824 4290:906.748 JLINK_SetResetType(JLINKARM_CM3_RESET_TYPE_NORMAL)
T0824 4290:906.754 - 0.007ms returns JLINKARM_CM3_RESET_TYPE_NORMAL
T0824 4290:906.760 JLINK_Reset()
T0824 4290:906.771   CPU is running
T0824 4290:906.779   CPU_WriteMem(4 bytes @ 0xE000EDF0)
T0824 4290:908.034   CPU is running
T0824 4290:908.057   CPU_WriteMem(4 bytes @ 0xE000EDFC)
T0824 4290:913.127   Reset: Halt core after reset via DEMCR.VC_CORERESET.
T0824 4290:916.401   Reset: Reset device via AIRCR.SYSRESETREQ.
T0824 4290:916.426   CPU is running
T0824 4290:916.436   CPU_WriteMem(4 bytes @ 0xE000ED0C)
T0824 4290:970.212   CPU_ReadMem(4 bytes @ 0xE000EDF0)
T0824 4290:971.175   CPU_ReadMem(4 bytes @ 0xE000EDF0)
T0824 4290:972.570   CPU is running
T0824 4290:972.607   CPU_WriteMem(4 bytes @ 0xE000EDF0)
T0824 4290:973.556   CPU is running
T0824 4290:973.581   CPU_WriteMem(4 bytes @ 0xE000EDFC)
T0824 4290:979.769   CPU_ReadMem(4 bytes @ 0xE000EDF0)
T0824 4290:987.712   CPU_WriteMem(4 bytes @ 0xE0002000)
T0824 4290:988.724   CPU_ReadMem(4 bytes @ 0xE000EDFC)
T0824 4290:989.607   CPU_ReadMem(4 bytes @ 0xE0001000)
T0824 4290:990.564 - 83.817ms
T0824 4290:990.620 JLINK_Halt()
T0824 4290:990.637 - 0.023ms returns 0x00
T0824 4290:990.734 JLINK_ReadMemU32(0xE000EDF0, 0x0001 Items, ...)
T0824 4290:990.764   CPU_ReadMem(4 bytes @ 0xE000EDF0)
T0824 4290:991.732   Data:  03 00 03 00
T0824 4290:991.760   Debug reg: DHCSR
T0824 4290:991.780 - 1.053ms returns 1
T0824 4290:991.804 JLINK_WriteU32(0xE000EDF0, 0xA05F0003)
T0824 4290:991.820   Debug reg: DHCSR
T0824 4290:991.851   CPU_WriteMem(4 bytes @ 0xE000EDF0)
T0824 4290:992.954 - 1.163ms returns 0
T0824 4290:992.980 JLINK_WriteU32(0xE000EDFC, 0x01000000)
T0824 4290:993.013   Debug reg: DEMCR
T0824 4290:993.048   CPU_WriteMem(4 bytes @ 0xE000EDFC)
T0824 4290:993.948 - 0.985ms returns 0
T0824 4290:999.720 JLINK_GetHWStatus(...)
T0824 4291:000.239 - 0.525ms returns 0x00
T0824 4291:003.978 JLINK_GetNumBPUnits(Type = 0xFFFFFF00)
T0824 4291:003.993 - 0.017ms returns 0x06
T0824 4291:004.000 JLINK_GetNumBPUnits(Type = 0xF0)
T0824 4291:004.004 - 0.007ms returns 0x2000
T0824 4291:004.011 JLINK_GetNumWPUnits()
T0824 4291:004.015 - 0.006ms returns 0x04
T0824 4291:007.492 JLINK_GetSpeed()
T0824 4291:007.503 - 0.013ms returns 0x3E8
T0824 4291:009.789 JLINK_ReadMemU32(0xE000E004, 0x0001 Items, ...)
T0824 4291:009.804   CPU_ReadMem(4 bytes @ 0xE000E004)
T0824 4291:010.813   Data:  01 00 00 00
T0824 4291:010.834 - 1.047ms returns 1
T0824 4291:010.844 JLINK_ReadMemU32(0xE000E004, 0x0001 Items, ...)
T0824 4291:010.855   CPU_ReadMem(4 bytes @ 0xE000E004)
T0824 4291:012.053   Data:  01 00 00 00
T0824 4291:012.074 - 1.232ms returns 1
T0824 4291:012.089 JLINK_WriteMemEx(0xE0001000, 0x001C Bytes, ..., Flags = 0x02000004)
T0824 4291:012.095   Data:  01 00 00 00 00 00 00 00 00 00 00 00 00 00 00 00 ...
T0824 4291:012.419   CPU_WriteMem(28 bytes @ 0xE0001000)
T0824 4291:013.619 - 1.541ms returns 0x1C
T0824 4291:013.640 JLINK_Halt()
T0824 4291:013.645 - 0.008ms returns 0x00
T0824 4291:013.655 JLINK_IsHalted()
T0824 4291:013.667 - 0.014ms returns TRUE
T0824 4291:015.474 JLINK_WriteMem(0x20000000, 0x0708 Bytes, ...)
T0824 4291:015.486   Data:  00 BE 0A E0 0D 78 2D 06 68 40 08 24 40 00 00 D3 ...
T0824 4291:015.771   CPU_WriteMem(1800 bytes @ 0x20000000)
T0824 4291:040.802 - 25.345ms returns 0x708
T0824 4291:040.937 JLINK_WriteReg(R0, 0x00000000)
T0824 4291:040.952 - 0.019ms returns 0x00
T0824 4291:040.960 JLINK_WriteReg(R1, 0x00B71B00)
T0824 4291:040.966 - 0.009ms returns 0x00
T0824 4291:040.973 JLINK_WriteReg(R2, 0x00000001)
T0824 4291:040.979 - 0.008ms returns 0x00
T0824 4291:040.986 JLINK_WriteReg(R3, 0x00000000)
T0824 4291:040.991 - 0.008ms returns 0x00
T0824 4291:040.998 JLINK_WriteReg(R4, 0x00000000)
T0824 4291:041.003 - 0.008ms returns 0x00
T0824 4291:041.010 JLINK_WriteReg(R5, 0x00000000)
T0824 4291:041.016 - 0.008ms returns 0x00
T0824 4291:041.022 JLINK_WriteReg(R6, 0x00000000)
T0824 4291:041.028 - 0.008ms returns 0x00
T0824 4291:041.034 JLINK_WriteReg(R7, 0x00000000)
T0824 4291:041.040 - 0.008ms returns 0x00
T0824 4291:041.046 JLINK_WriteReg(R8, 0x00000000)
T0824 4291:041.052 - 0.008ms returns 0x00
T0824 4291:041.058 JLINK_WriteReg(R9, 0x20000704)
T0824 4291:041.064 - 0.008ms returns 0x00
T0824 4291:041.070 JLINK_WriteReg(R10, 0x00000000)
T0824 4291:041.076 - 0.008ms returns 0x00
T0824 4291:041.083 JLINK_WriteReg(R11, 0x00000000)
T0824 4291:041.088 - 0.008ms returns 0x00
T0824 4291:041.095 JLINK_WriteReg(R12, 0x00000000)
T0824 4291:041.100 - 0.008ms returns 0x00
T0824 4291:041.107 JLINK_WriteReg(R13 (SP), 0x20002000)
T0824 4291:041.113 - 0.009ms returns 0x00
T0824 4291:041.120 JLINK_WriteReg(R14, 0x20000001)
T0824 4291:041.125 - 0.008ms returns 0x00
T0824 4291:041.132 JLINK_WriteReg(R15 (PC), 0x20000020)
T0824 4291:041.142 - 0.013ms returns 0x00
T0824 4291:041.149 JLINK_WriteReg(XPSR, 0x01000000)
T0824 4291:041.154 - 0.008ms returns 0x00
T0824 4291:041.161 JLINK_WriteReg(MSP, 0x20002000)
T0824 4291:041.167 - 0.008ms returns 0x00
T0824 4291:041.173 JLINK_WriteReg(PSP, 0x20002000)
T0824 4291:041.179 - 0.008ms returns 0x00
T0824 4291:041.185 JLINK_WriteReg(CFBP, 0x00000000)
T0824 4291:041.191 - 0.008ms returns 0x00
T0824 4291:041.200   JLINK_SetBPEx(Addr = 0x20000000, Type = 0xFFFFFFF2)
T0824 4291:041.214   CPU_ReadMem(2 bytes @ 0x20000000)
T0824 4291:042.218 - 1.036ms returns 0x00000001
T0824 4291:042.249 JLINK_Go()
T0824 4291:042.260   CPU_WriteMem(2 bytes @ 0x20000000)
T0824 4291:043.331   CPU_ReadMem(4 bytes @ 0xE0001000)
T0824 4291:044.484   CPU_WriteMem(4 bytes @ 0xE0002008)
T0824 4291:044.510   CPU_WriteMem(4 bytes @ 0xE000200C)
T0824 4291:044.519   CPU_WriteMem(4 bytes @ 0xE0002010)
T0824 4291:044.528   CPU_WriteMem(4 bytes @ 0xE0002014)
T0824 4291:044.537   CPU_WriteMem(4 bytes @ 0xE0002018)
T0824 4291:044.546   CPU_WriteMem(4 bytes @ 0xE000201C)
T0824 4291:047.627   CPU_WriteMem(4 bytes @ 0xE0001004)
T0824 4291:055.014 - 12.785ms
T0824 4291:055.045 JLINK_IsHalted()
T0824 4291:062.060   CPU_ReadMem(2 bytes @ 0x20000000)
T0824 4291:062.948 - 7.913ms returns TRUE
T0824 4291:062.974 JLINK_ReadReg(R15 (PC))
T0824 4291:062.986 - 0.017ms returns 0x20000000
T0824 4291:063.013 JLINK_ClrBPEx(BPHandle = 0x00000001)
T0824 4291:063.024 - 0.016ms returns 0x00
T0824 4291:063.036 JLINK_ReadReg(R0)
T0824 4291:063.047 - 0.015ms returns 0x00000000
T0824 4291:063.451 JLINK_WriteReg(R0, 0x00026000)
T0824 4291:063.476 - 0.031ms returns 0x00
T0824 4291:063.488 JLINK_WriteReg(R1, 0x00001000)
T0824 4291:063.499 - 0.015ms returns 0x00
T0824 4291:063.510 JLINK_WriteReg(R2, 0x000000FF)
T0824 4291:063.520 - 0.024ms returns 0x00
T0824 4291:063.541 JLINK_WriteReg(R3, 0x00000000)
T0824 4291:063.552 - 0.015ms returns 0x00
T0824 4291:063.563 JLINK_WriteReg(R4, 0x00000000)
T0824 4291:063.574 - 0.015ms returns 0x00
T0824 4291:063.585 JLINK_WriteReg(R5, 0x00000000)
T0824 4291:063.595 - 0.015ms returns 0x00
T0824 4291:063.607 JLINK_WriteReg(R6, 0x00000000)
T0824 4291:063.617 - 0.015ms returns 0x00
T0824 4291:063.628 JLINK_WriteReg(R7, 0x00000000)
T0824 4291:063.639 - 0.015ms returns 0x00
T0824 4291:063.650 JLINK_WriteReg(R8, 0x00000000)
T0824 4291:063.660 - 0.015ms returns 0x00
T0824 4291:063.672 JLINK_WriteReg(R9, 0x20000704)
T0824 4291:063.682 - 0.015ms returns 0x00
T0824 4291:063.693 JLINK_WriteReg(R10, 0x00000000)
T0824 4291:063.704 - 0.015ms returns 0x00
T0824 4291:063.715 JLINK_WriteReg(R11, 0x00000000)
T0824 4291:063.725 - 0.015ms returns 0x00
T0824 4291:063.737 JLINK_WriteReg(R12, 0x00000000)
T0824 4291:063.747 - 0.015ms returns 0x00
T0824 4291:063.758 JLINK_WriteReg(R13 (SP), 0x20002000)
T0824 4291:063.769 - 0.016ms returns 0x00
T0824 4291:063.781 JLINK_WriteReg(R14, 0x20000001)
T0824 4291:063.791 - 0.015ms returns 0x00
T0824 4291:063.802 JLINK_WriteReg(R15 (PC), 0x20000314)
T0824 4291:063.813 - 0.015ms returns 0x00
T0824 4291:063.824 JLINK_WriteReg(XPSR, 0x01000000)
T0824 4291:063.835 - 0.015ms returns 0x00
T0824 4291:063.846 JLINK_WriteReg(MSP, 0x20002000)
T0824 4291:063.856 - 0.015ms returns 0x00
T0824 4291:063.867 JLINK_WriteReg(PSP, 0x20002000)
T0824 4291:063.877 - 0.015ms returns 0x00
T0824 4291:063.889 JLINK_WriteReg(CFBP, 0x00000000)
T0824 4291:063.899 - 0.014ms returns 0x00
T0824 4291:063.912   JLINK_SetBPEx(Addr = 0x20000000, Type = 0xFFFFFFF2)
T0824 4291:063.928 - 0.022ms returns 0x00000002
T0824 4291:063.940 JLINK_Go()
T0824 4291:063.962   CPU_ReadMem(4 bytes @ 0xE0001000)
T0824 4291:071.523 - 7.599ms
T0824 4291:071.555 JLINK_IsHalted()
T0824 4291:078.728   CPU_ReadMem(2 bytes @ 0x20000000)
T0824 4291:079.736 - 8.201ms returns TRUE
T0824 4291:079.778 JLINK_ReadReg(R15 (PC))
T0824 4291:079.802 - 0.034ms returns 0x20000000
T0824 4291:079.829 JLINK_ClrBPEx(BPHandle = 0x00000002)
T0824 4291:079.849 - 0.030ms returns 0x00
T0824 4291:079.966 JLINK_ReadReg(R0)
T0824 4291:079.995 - 0.038ms returns 0x00000000
T0824 4291:081.118 JLINK_WriteReg(R0, 0x00027000)
T0824 4291:081.154 - 0.047ms returns 0x00
T0824 4291:081.178 JLINK_WriteReg(R1, 0x00001000)
T0824 4291:081.198 - 0.030ms returns 0x00
T0824 4291:081.220 JLINK_WriteReg(R2, 0x000000FF)
T0824 4291:081.240 - 0.029ms returns 0x00
T0824 4291:081.262 JLINK_WriteReg(R3, 0x00000000)
T0824 4291:081.281 - 0.028ms returns 0x00
T0824 4291:081.303 JLINK_WriteReg(R4, 0x00000000)
T0824 4291:081.322 - 0.028ms returns 0x00
T0824 4291:081.344 JLINK_WriteReg(R5, 0x00000000)
T0824 4291:081.363 - 0.029ms returns 0x00
T0824 4291:081.385 JLINK_WriteReg(R6, 0x00000000)
T0824 4291:081.404 - 0.028ms returns 0x00
T0824 4291:081.426 JLINK_WriteReg(R7, 0x00000000)
T0824 4291:081.445 - 0.028ms returns 0x00
T0824 4291:081.466 JLINK_WriteReg(R8, 0x00000000)
T0824 4291:081.493 - 0.036ms returns 0x00
T0824 4291:081.515 JLINK_WriteReg(R9, 0x20000704)
T0824 4291:081.535 - 0.028ms returns 0x00
T0824 4291:081.556 JLINK_WriteReg(R10, 0x00000000)
T0824 4291:081.576 - 0.029ms returns 0x00
T0824 4291:081.597 JLINK_WriteReg(R11, 0x00000000)
T0824 4291:081.617 - 0.029ms returns 0x00
T0824 4291:081.638 JLINK_WriteReg(R12, 0x00000000)
T0824 4291:081.657 - 0.028ms returns 0x00
T0824 4291:081.679 JLINK_WriteReg(R13 (SP), 0x20002000)
T0824 4291:081.700 - 0.030ms returns 0x00
T0824 4291:081.722 JLINK_WriteReg(R14, 0x20000001)
T0824 4291:081.741 - 0.029ms returns 0x00
T0824 4291:081.762 JLINK_WriteReg(R15 (PC), 0x20000314)
T0824 4291:081.782 - 0.029ms returns 0x00
T0824 4291:081.804 JLINK_WriteReg(XPSR, 0x01000000)
T0824 4291:081.824 - 0.028ms returns 0x00
T0824 4291:081.845 JLINK_WriteReg(MSP, 0x20002000)
T0824 4291:081.864 - 0.028ms returns 0x00
T0824 4291:081.886 JLINK_WriteReg(PSP, 0x20002000)
T0824 4291:081.905 - 0.028ms returns 0x00
T0824 4291:081.927 JLINK_WriteReg(CFBP, 0x00000000)
T0824 4291:081.946 - 0.028ms returns 0x00
T0824 4291:081.970   JLINK_SetBPEx(Addr = 0x20000000, Type = 0xFFFFFFF2)
T0824 4291:081.999 - 0.041ms returns 0x00000003
T0824 4291:082.022 JLINK_Go()
T0824 4291:082.058   CPU_ReadMem(4 bytes @ 0xE0001000)
T0824 4291:089.638 - 7.647ms
T0824 4291:089.690 JLINK_IsHalted()
T0824 4291:096.782   CPU_ReadMem(2 bytes @ 0x20000000)
T0824 4291:097.804 - 8.143ms returns TRUE
T0824 4291:097.855 JLINK_ReadReg(R15 (PC))
T0824 4291:097.882 - 0.038ms returns 0x20000000
T0824 4291:097.906 JLINK_ClrBPEx(BPHandle = 0x00000003)
T0824 4291:097.927 - 0.030ms returns 0x00
T0824 4291:097.950 JLINK_ReadReg(R0)
T0824 4291:097.970 - 0.029ms returns 0x00000000
T0824 4291:098.391 JLINK_WriteReg(R0, 0x00028000)
T0824 4291:098.400 - 0.012ms returns 0x00
T0824 4291:098.406 JLINK_WriteReg(R1, 0x00001000)
T0824 4291:098.411 - 0.007ms returns 0x00
T0824 4291:098.416 JLINK_WriteReg(R2, 0x000000FF)
T0824 4291:098.421 - 0.007ms returns 0x00
T0824 4291:098.426 JLINK_WriteReg(R3, 0x00000000)
T0824 4291:098.436 - 0.012ms returns 0x00
T0824 4291:098.442 JLINK_WriteReg(R4, 0x00000000)
T0824 4291:098.447 - 0.007ms returns 0x00
T0824 4291:098.453 JLINK_WriteReg(R5, 0x00000000)
T0824 4291:098.458 - 0.007ms returns 0x00
T0824 4291:098.463 JLINK_WriteReg(R6, 0x00000000)
T0824 4291:098.468 - 0.007ms returns 0x00
T0824 4291:098.473 JLINK_WriteReg(R7, 0x00000000)
T0824 4291:098.478 - 0.007ms returns 0x00
T0824 4291:098.484 JLINK_WriteReg(R8, 0x00000000)
T0824 4291:098.488 - 0.007ms returns 0x00
T0824 4291:098.494 JLINK_WriteReg(R9, 0x20000704)
T0824 4291:098.499 - 0.007ms returns 0x00
T0824 4291:098.504 JLINK_WriteReg(R10, 0x00000000)
T0824 4291:098.509 - 0.007ms returns 0x00
T0824 4291:098.514 JLINK_WriteReg(R11, 0x00000000)
T0824 4291:098.519 - 0.007ms returns 0x00
T0824 4291:098.525 JLINK_WriteReg(R12, 0x00000000)
T0824 4291:098.529 - 0.007ms returns 0x00
T0824 4291:098.535 JLINK_WriteReg(R13 (SP), 0x20002000)
T0824 4291:098.540 - 0.007ms returns 0x00
T0824 4291:098.546 JLINK_WriteReg(R14, 0x20000001)
T0824 4291:098.551 - 0.007ms returns 0x00
T0824 4291:098.556 JLINK_WriteReg(R15 (PC), 0x20000314)
T0824 4291:098.565 - 0.011ms returns 0x00
T0824 4291:098.571 JLINK_WriteReg(XPSR, 0x01000000)
T0824 4291:098.575 - 0.007ms returns 0x00
T0824 4291:098.581 JLINK_WriteReg(MSP, 0x20002000)
T0824 4291:098.586 - 0.007ms returns 0x00
T0824 4291:098.591 JLINK_WriteReg(PSP, 0x20002000)
T0824 4291:098.596 - 0.007ms returns 0x00
T0824 4291:098.601 JLINK_WriteReg(CFBP, 0x00000000)
T0824 4291:098.606 - 0.007ms returns 0x00
T0824 4291:098.613   JLINK_SetBPEx(Addr = 0x20000000, Type = 0xFFFFFFF2)
T0824 4291:098.620 - 0.010ms returns 0x00000004
T0824 4291:098.626 JLINK_Go()
T0824 4291:098.636   CPU_ReadMem(4 bytes @ 0xE0001000)
T0824 4291:106.045 - 7.431ms
T0824 4291:106.065 JLINK_IsHalted()
T0824 4291:113.136   CPU_ReadMem(2 bytes @ 0x20000000)
T0824 4291:114.002 - 7.941ms returns TRUE
T0824 4291:114.012 JLINK_ReadReg(R15 (PC))
T0824 4291:114.018 - 0.008ms returns 0x20000000
T0824 4291:114.025 JLINK_ClrBPEx(BPHandle = 0x00000004)
T0824 4291:114.030 - 0.007ms returns 0x00
T0824 4291:114.035 JLINK_ReadReg(R0)
T0824 4291:114.040 - 0.007ms returns 0x00000000
T0824 4291:114.354 JLINK_WriteReg(R0, 0x00029000)
T0824 4291:114.363 - 0.011ms returns 0x00
T0824 4291:114.369 JLINK_WriteReg(R1, 0x00001000)
T0824 4291:114.374 - 0.007ms returns 0x00
T0824 4291:114.380 JLINK_WriteReg(R2, 0x000000FF)
T0824 4291:114.385 - 0.007ms returns 0x00
T0824 4291:114.393 JLINK_WriteReg(R3, 0x00000000)
T0824 4291:114.398 - 0.007ms returns 0x00
T0824 4291:114.404 JLINK_WriteReg(R4, 0x00000000)
T0824 4291:114.409 - 0.007ms returns 0x00
T0824 4291:114.414 JLINK_WriteReg(R5, 0x00000000)
T0824 4291:114.419 - 0.007ms returns 0x00
T0824 4291:114.424 JLINK_WriteReg(R6, 0x00000000)
T0824 4291:114.429 - 0.007ms returns 0x00
T0824 4291:114.435 JLINK_WriteReg(R7, 0x00000000)
T0824 4291:114.439 - 0.007ms returns 0x00
T0824 4291:114.445 JLINK_WriteReg(R8, 0x00000000)
T0824 4291:114.450 - 0.007ms returns 0x00
T0824 4291:114.455 JLINK_WriteReg(R9, 0x20000704)
T0824 4291:114.460 - 0.007ms returns 0x00
T0824 4291:114.466 JLINK_WriteReg(R10, 0x00000000)
T0824 4291:114.470 - 0.007ms returns 0x00
T0824 4291:114.476 JLINK_WriteReg(R11, 0x00000000)
T0824 4291:114.481 - 0.007ms returns 0x00
T0824 4291:114.486 JLINK_WriteReg(R12, 0x00000000)
T0824 4291:114.491 - 0.007ms returns 0x00
T0824 4291:114.496 JLINK_WriteReg(R13 (SP), 0x20002000)
T0824 4291:114.502 - 0.007ms returns 0x00
T0824 4291:114.507 JLINK_WriteReg(R14, 0x20000001)
T0824 4291:114.512 - 0.007ms returns 0x00
T0824 4291:114.517 JLINK_WriteReg(R15 (PC), 0x20000314)
T0824 4291:114.522 - 0.007ms returns 0x00
T0824 4291:114.528 JLINK_WriteReg(XPSR, 0x01000000)
T0824 4291:114.532 - 0.007ms returns 0x00
T0824 4291:114.538 JLINK_WriteReg(MSP, 0x20002000)
T0824 4291:114.543 - 0.007ms returns 0x00
T0824 4291:114.548 JLINK_WriteReg(PSP, 0x20002000)
T0824 4291:114.553 - 0.007ms returns 0x00
T0824 4291:114.559 JLINK_WriteReg(CFBP, 0x00000000)
T0824 4291:114.563 - 0.007ms returns 0x00
T0824 4291:114.569   JLINK_SetBPEx(Addr = 0x20000000, Type = 0xFFFFFFF2)
T0824 4291:114.577 - 0.010ms returns 0x00000005
T0824 4291:114.583 JLINK_Go()
T0824 4291:114.592   CPU_ReadMem(4 bytes @ 0xE0001000)
T0824 4291:122.022 - 7.447ms
T0824 4291:122.035 JLINK_IsHalted()
T0824 4291:128.914   CPU_ReadMem(2 bytes @ 0x20000000)
T0824 4291:129.885 - 7.854ms returns TRUE
T0824 4291:129.895 JLINK_ReadReg(R15 (PC))
T0824 4291:129.901 - 0.009ms returns 0x20000000
T0824 4291:129.908 JLINK_ClrBPEx(BPHandle = 0x00000005)
T0824 4291:129.913 - 0.008ms returns 0x00
T0824 4291:129.919 JLINK_ReadReg(R0)
T0824 4291:129.925 - 0.007ms returns 0x00000000
T0824 4291:130.234 JLINK_WriteReg(R0, 0x0002A000)
T0824 4291:130.244 - 0.012ms returns 0x00
T0824 4291:130.250 JLINK_WriteReg(R1, 0x00001000)
T0824 4291:130.255 - 0.008ms returns 0x00
T0824 4291:130.261 JLINK_WriteReg(R2, 0x000000FF)
T0824 4291:130.266 - 0.007ms returns 0x00
T0824 4291:130.272 JLINK_WriteReg(R3, 0x00000000)
T0824 4291:130.277 - 0.007ms returns 0x00
T0824 4291:130.283 JLINK_WriteReg(R4, 0x00000000)
T0824 4291:130.292 - 0.012ms returns 0x00
T0824 4291:130.299 JLINK_WriteReg(R5, 0x00000000)
T0824 4291:130.304 - 0.007ms returns 0x00
T0824 4291:130.310 JLINK_WriteReg(R6, 0x00000000)
T0824 4291:130.315 - 0.007ms returns 0x00
T0824 4291:130.321 JLINK_WriteReg(R7, 0x00000000)
T0824 4291:130.326 - 0.007ms returns 0x00
T0824 4291:130.332 JLINK_WriteReg(R8, 0x00000000)
T0824 4291:130.338 - 0.007ms returns 0x00
T0824 4291:130.343 JLINK_WriteReg(R9, 0x20000704)
T0824 4291:130.357 - 0.016ms returns 0x00
T0824 4291:130.363 JLINK_WriteReg(R10, 0x00000000)
T0824 4291:130.368 - 0.007ms returns 0x00
T0824 4291:130.374 JLINK_WriteReg(R11, 0x00000000)
T0824 4291:130.379 - 0.007ms returns 0x00
T0824 4291:130.385 JLINK_WriteReg(R12, 0x00000000)
T0824 4291:130.390 - 0.007ms returns 0x00
T0824 4291:130.396 JLINK_WriteReg(R13 (SP), 0x20002000)
T0824 4291:130.402 - 0.008ms returns 0x00
T0824 4291:130.408 JLINK_WriteReg(R14, 0x20000001)
T0824 4291:130.413 - 0.007ms returns 0x00
T0824 4291:130.419 JLINK_WriteReg(R15 (PC), 0x20000314)
T0824 4291:130.424 - 0.007ms returns 0x00
T0824 4291:130.430 JLINK_WriteReg(XPSR, 0x01000000)
T0824 4291:130.435 - 0.007ms returns 0x00
T0824 4291:130.441 JLINK_WriteReg(MSP, 0x20002000)
T0824 4291:130.446 - 0.007ms returns 0x00
T0824 4291:130.452 JLINK_WriteReg(PSP, 0x20002000)
T0824 4291:130.457 - 0.007ms returns 0x00
T0824 4291:130.463 JLINK_WriteReg(CFBP, 0x00000000)
T0824 4291:130.468 - 0.007ms returns 0x00
T0824 4291:130.475   JLINK_SetBPEx(Addr = 0x20000000, Type = 0xFFFFFFF2)
T0824 4291:130.483 - 0.011ms returns 0x00000006
T0824 4291:130.489 JLINK_Go()
T0824 4291:130.499   CPU_ReadMem(4 bytes @ 0xE0001000)
T0824 4291:137.972 - 7.492ms
T0824 4291:137.987 JLINK_IsHalted()
T0824 4291:144.944   CPU_ReadMem(2 bytes @ 0x20000000)
T0824 4291:145.793 - 7.812ms returns TRUE
T0824 4291:145.808 JLINK_ReadReg(R15 (PC))
T0824 4291:145.816 - 0.012ms returns 0x20000000
T0824 4291:145.825 JLINK_ClrBPEx(BPHandle = 0x00000006)
T0824 4291:145.832 - 0.010ms returns 0x00
T0824 4291:145.840 JLINK_ReadReg(R0)
T0824 4291:145.847 - 0.010ms returns 0x00000000
T0824 4291:146.239 JLINK_WriteReg(R0, 0x0002B000)
T0824 4291:146.252 - 0.016ms returns 0x00
T0824 4291:146.260 JLINK_WriteReg(R1, 0x00001000)
T0824 4291:146.267 - 0.010ms returns 0x00
T0824 4291:146.275 JLINK_WriteReg(R2, 0x000000FF)
T0824 4291:146.282 - 0.010ms returns 0x00
T0824 4291:146.290 JLINK_WriteReg(R3, 0x00000000)
T0824 4291:146.297 - 0.010ms returns 0x00
T0824 4291:146.311 JLINK_WriteReg(R4, 0x00000000)
T0824 4291:146.319 - 0.010ms returns 0x00
T0824 4291:146.327 JLINK_WriteReg(R5, 0x00000000)
T0824 4291:146.333 - 0.010ms returns 0x00
T0824 4291:146.341 JLINK_WriteReg(R6, 0x00000000)
T0824 4291:146.348 - 0.010ms returns 0x00
T0824 4291:146.356 JLINK_WriteReg(R7, 0x00000000)
T0824 4291:146.363 - 0.010ms returns 0x00
T0824 4291:146.371 JLINK_WriteReg(R8, 0x00000000)
T0824 4291:146.378 - 0.010ms returns 0x00
T0824 4291:146.385 JLINK_WriteReg(R9, 0x20000704)
T0824 4291:146.392 - 0.010ms returns 0x00
T0824 4291:146.400 JLINK_WriteReg(R10, 0x00000000)
T0824 4291:146.407 - 0.010ms returns 0x00
T0824 4291:146.415 JLINK_WriteReg(R11, 0x00000000)
T0824 4291:146.421 - 0.010ms returns 0x00
T0824 4291:146.429 JLINK_WriteReg(R12, 0x00000000)
T0824 4291:146.436 - 0.010ms returns 0x00
T0824 4291:146.444 JLINK_WriteReg(R13 (SP), 0x20002000)
T0824 4291:146.451 - 0.010ms returns 0x00
T0824 4291:146.459 JLINK_WriteReg(R14, 0x20000001)
T0824 4291:146.466 - 0.010ms returns 0x00
T0824 4291:146.473 JLINK_WriteReg(R15 (PC), 0x20000314)
T0824 4291:146.480 - 0.010ms returns 0x00
T0824 4291:146.488 JLINK_WriteReg(XPSR, 0x01000000)
T0824 4291:146.495 - 0.010ms returns 0x00
T0824 4291:146.503 JLINK_WriteReg(MSP, 0x20002000)
T0824 4291:146.510 - 0.010ms returns 0x00
T0824 4291:146.518 JLINK_WriteReg(PSP, 0x20002000)
T0824 4291:146.524 - 0.010ms returns 0x00
T0824 4291:146.532 JLINK_WriteReg(CFBP, 0x00000000)
T0824 4291:146.539 - 0.010ms returns 0x00
T0824 4291:146.548   JLINK_SetBPEx(Addr = 0x20000000, Type = 0xFFFFFFF2)
T0824 4291:146.562 - 0.018ms returns 0x00000007
T0824 4291:146.571 JLINK_Go()
T0824 4291:146.584   CPU_ReadMem(4 bytes @ 0xE0001000)
T0824 4291:154.206 - 7.646ms
T0824 4291:154.225 JLINK_IsHalted()
T0824 4291:161.350   CPU_ReadMem(2 bytes @ 0x20000000)
T0824 4291:162.245 - 8.028ms returns TRUE
T0824 4291:162.266 JLINK_ReadReg(R15 (PC))
T0824 4291:162.278 - 0.017ms returns 0x20000000
T0824 4291:162.290 JLINK_ClrBPEx(BPHandle = 0x00000007)
T0824 4291:162.301 - 0.015ms returns 0x00
T0824 4291:162.313 JLINK_ReadReg(R0)
T0824 4291:162.323 - 0.015ms returns 0x00000000
T0824 4291:162.665 JLINK_WriteReg(R0, 0x00000001)
T0824 4291:162.683 - 0.023ms returns 0x00
T0824 4291:162.695 JLINK_WriteReg(R1, 0x00001000)
T0824 4291:162.705 - 0.015ms returns 0x00
T0824 4291:162.716 JLINK_WriteReg(R2, 0x000000FF)
T0824 4291:162.726 - 0.015ms returns 0x00
T0824 4291:162.738 JLINK_WriteReg(R3, 0x00000000)
T0824 4291:162.748 - 0.015ms returns 0x00
T0824 4291:162.760 JLINK_WriteReg(R4, 0x00000000)
T0824 4291:162.770 - 0.014ms returns 0x00
T0824 4291:162.781 JLINK_WriteReg(R5, 0x00000000)
T0824 4291:162.791 - 0.015ms returns 0x00
T0824 4291:162.803 JLINK_WriteReg(R6, 0x00000000)
T0824 4291:162.813 - 0.015ms returns 0x00
T0824 4291:162.824 JLINK_WriteReg(R7, 0x00000000)
T0824 4291:162.834 - 0.015ms returns 0x00
T0824 4291:162.846 JLINK_WriteReg(R8, 0x00000000)
T0824 4291:162.856 - 0.015ms returns 0x00
T0824 4291:162.868 JLINK_WriteReg(R9, 0x20000704)
T0824 4291:162.878 - 0.015ms returns 0x00
T0824 4291:162.889 JLINK_WriteReg(R10, 0x00000000)
T0824 4291:162.900 - 0.015ms returns 0x00
T0824 4291:162.911 JLINK_WriteReg(R11, 0x00000000)
T0824 4291:162.921 - 0.015ms returns 0x00
T0824 4291:162.933 JLINK_WriteReg(R12, 0x00000000)
T0824 4291:162.943 - 0.014ms returns 0x00
T0824 4291:162.954 JLINK_WriteReg(R13 (SP), 0x20002000)
T0824 4291:162.966 - 0.032ms returns 0x00
T0824 4291:162.995 JLINK_WriteReg(R14, 0x20000001)
T0824 4291:163.007 - 0.018ms returns 0x00
T0824 4291:163.020 JLINK_WriteReg(R15 (PC), 0x20000060)
T0824 4291:163.033 - 0.018ms returns 0x00
T0824 4291:163.047 JLINK_WriteReg(XPSR, 0x01000000)
T0824 4291:163.059 - 0.018ms returns 0x00
T0824 4291:163.072 JLINK_WriteReg(MSP, 0x20002000)
T0824 4291:163.084 - 0.018ms returns 0x00
T0824 4291:163.098 JLINK_WriteReg(PSP, 0x20002000)
T0824 4291:163.110 - 0.018ms returns 0x00
T0824 4291:163.123 JLINK_WriteReg(CFBP, 0x00000000)
T0824 4291:163.136 - 0.018ms returns 0x00
T0824 4291:163.151   JLINK_SetBPEx(Addr = 0x20000000, Type = 0xFFFFFFF2)
T0824 4291:163.169 - 0.025ms returns 0x00000008
T0824 4291:163.183 JLINK_Go()
T0824 4291:163.206   CPU_ReadMem(4 bytes @ 0xE0001000)
T0824 4291:170.635 - 7.469ms
T0824 4291:170.667 JLINK_IsHalted()
T0824 4291:177.734   CPU_ReadMem(2 bytes @ 0x20000000)
T0824 4291:178.703 - 8.053ms returns TRUE
T0824 4291:178.743 JLINK_ReadReg(R15 (PC))
T0824 4291:178.768 - 0.034ms returns 0x20000000
T0824 4291:178.890 JLINK_ClrBPEx(BPHandle = 0x00000008)
T0824 4291:178.918 - 0.037ms returns 0x00
T0824 4291:178.942 JLINK_ReadReg(R0)
T0824 4291:178.961 - 0.029ms returns 0x00000000
T0824 4291:244.050 JLINK_WriteMem(0x20000000, 0x0708 Bytes, ...)
T0824 4291:244.092   Data:  00 BE 0A E0 0D 78 2D 06 68 40 08 24 40 00 00 D3 ...
T0824 4291:244.154   CPU_WriteMem(1800 bytes @ 0x20000000)
T0824 4291:269.066 - 25.061ms returns 0x708
T0824 4291:269.329 JLINK_WriteReg(R0, 0x00000000)
T0824 4291:269.379 - 0.064ms returns 0x00
T0824 4291:269.407 JLINK_WriteReg(R1, 0x00B71B00)
T0824 4291:269.430 - 0.034ms returns 0x00
T0824 4291:269.455 JLINK_WriteReg(R2, 0x00000002)
T0824 4291:269.477 - 0.032ms returns 0x00
T0824 4291:269.502 JLINK_WriteReg(R3, 0x00000000)
T0824 4291:269.523 - 0.032ms returns 0x00
T0824 4291:269.548 JLINK_WriteReg(R4, 0x00000000)
T0824 4291:269.570 - 0.032ms returns 0x00
T0824 4291:269.594 JLINK_WriteReg(R5, 0x00000000)
T0824 4291:269.616 - 0.032ms returns 0x00
T0824 4291:269.640 JLINK_WriteReg(R6, 0x00000000)
T0824 4291:269.661 - 0.032ms returns 0x00
T0824 4291:269.686 JLINK_WriteReg(R7, 0x00000000)
T0824 4291:269.810 - 0.141ms returns 0x00
T0824 4291:269.843 JLINK_WriteReg(R8, 0x00000000)
T0824 4291:269.866 - 0.033ms returns 0x00
T0824 4291:269.890 JLINK_WriteReg(R9, 0x20000704)
T0824 4291:269.912 - 0.032ms returns 0x00
T0824 4291:269.935 JLINK_WriteReg(R10, 0x00000000)
T0824 4291:269.957 - 0.032ms returns 0x00
T0824 4291:269.981 JLINK_WriteReg(R11, 0x00000000)
T0824 4291:270.003 - 0.031ms returns 0x00
T0824 4291:270.027 JLINK_WriteReg(R12, 0x00000000)
T0824 4291:270.055 - 0.037ms returns 0x00
T0824 4291:270.079 JLINK_WriteReg(R13 (SP), 0x20002000)
T0824 4291:270.103 - 0.034ms returns 0x00
T0824 4291:270.126 JLINK_WriteReg(R14, 0x20000001)
T0824 4291:270.148 - 0.032ms returns 0x00
T0824 4291:270.172 JLINK_WriteReg(R15 (PC), 0x20000020)
T0824 4291:270.193 - 0.032ms returns 0x00
T0824 4291:270.218 JLINK_WriteReg(XPSR, 0x01000000)
T0824 4291:270.240 - 0.031ms returns 0x00
T0824 4291:270.263 JLINK_WriteReg(MSP, 0x20002000)
T0824 4291:270.285 - 0.032ms returns 0x00
T0824 4291:270.309 JLINK_WriteReg(PSP, 0x20002000)
T0824 4291:270.331 - 0.032ms returns 0x00
T0824 4291:270.354 JLINK_WriteReg(CFBP, 0x00000000)
T0824 4291:270.375 - 0.031ms returns 0x00
T0824 4291:270.403   JLINK_SetBPEx(Addr = 0x20000000, Type = 0xFFFFFFF2)
T0824 4291:270.449   CPU_ReadMem(2 bytes @ 0x20000000)
T0824 4291:271.402 - 1.034ms returns 0x00000009
T0824 4291:271.459 JLINK_Go()
T0824 4291:271.492   CPU_WriteMem(2 bytes @ 0x20000000)
T0824 4291:272.693   CPU_ReadMem(4 bytes @ 0xE0001000)
T0824 4291:280.949 - 9.534ms
T0824 4291:281.024 JLINK_IsHalted()
T0824 4291:288.518   CPU_ReadMem(2 bytes @ 0x20000000)
T0824 4291:289.669 - 8.688ms returns TRUE
T0824 4291:289.738 JLINK_ReadReg(R15 (PC))
T0824 4291:289.767 - 0.041ms returns 0x20000000
T0824 4291:289.795 JLINK_ClrBPEx(BPHandle = 0x00000009)
T0824 4291:289.818 - 0.034ms returns 0x00
T0824 4291:289.844 JLINK_ReadReg(R0)
T0824 4291:289.865 - 0.032ms returns 0x00000000
T0824 4291:290.673 JLINK_WriteMem(0x20000718, 0x00E8 Bytes, ...)
T0824 4291:290.715   Data:  90 53 00 20 C1 63 02 00 C9 63 02 00 CB 63 02 00 ...
T0824 4291:290.774   CPU_WriteMem(232 bytes @ 0x20000718)
T0824 4291:294.865 - 4.236ms returns 0xE8
T0824 4291:294.935 JLINK_WriteMem(0x20000800, 0x0400 Bytes, ...)
T0824 4291:294.960   Data:  00 00 00 00 00 00 00 00 00 00 00 00 00 00 00 00 ...
T0824 4291:295.030   CPU_WriteMem(1024 bytes @ 0x20000800)
T0824 4291:309.842 - 14.950ms returns 0x400
T0824 4291:309.920 JLINK_WriteMem(0x20000C00, 0x0400 Bytes, ...)
T0824 4291:309.953   Data:  06 E0 E0 68 40 F0 01 03 94 E8 07 00 98 47 10 34 ...
T0824 4291:310.031   CPU_WriteMem(1024 bytes @ 0x20000C00)
T0824 4291:324.943 - 15.068ms returns 0x400
T0824 4291:325.025 JLINK_WriteMem(0x20001000, 0x0400 Bytes, ...)
T0824 4291:325.052   Data:  19 E0 D4 F8 58 12 39 4A 01 F0 4F 01 11 60 02 E0 ...
T0824 4291:325.111   CPU_WriteMem(1024 bytes @ 0x20001000)
T0824 4291:339.885 - 14.903ms returns 0x400
T0824 4291:339.961 JLINK_WriteMem(0x20001400, 0x0318 Bytes, ...)
T0824 4291:339.988   Data:  80 41 D3 F8 84 41 54 60 5A 17 C3 F8 84 21 00 22 ...
T0824 4291:340.042   CPU_WriteMem(792 bytes @ 0x20001400)
T0824 4291:351.716 - 11.798ms returns 0x318
T0824 4291:351.803 JLINK_WriteReg(R0, 0x00026000)
T0824 4291:351.842 - 0.051ms returns 0x00
T0824 4291:351.870 JLINK_WriteReg(R1, 0x00001000)
T0824 4291:351.892 - 0.033ms returns 0x00
T0824 4291:351.922 JLINK_WriteReg(R2, 0x20000718)
T0824 4291:351.944 - 0.032ms returns 0x00
T0824 4291:351.969 JLINK_WriteReg(R3, 0x00000000)
T0824 4291:351.991 - 0.032ms returns 0x00
T0824 4291:352.017 JLINK_WriteReg(R4, 0x00000000)
T0824 4291:352.039 - 0.032ms returns 0x00
T0824 4291:352.067 JLINK_WriteReg(R5, 0x00000000)
T0824 4291:352.089 - 0.031ms returns 0x00
T0824 4291:352.115 JLINK_WriteReg(R6, 0x00000000)
T0824 4291:352.137 - 0.032ms returns 0x00
T0824 4291:352.165 JLINK_WriteReg(R7, 0x00000000)
T0824 4291:352.186 - 0.032ms returns 0x00
T0824 4291:352.213 JLINK_WriteReg(R8, 0x00000000)
T0824 4291:352.234 - 0.032ms returns 0x00
T0824 4291:352.263 JLINK_WriteReg(R9, 0x20000704)
T0824 4291:352.297 - 0.044ms returns 0x00
T0824 4291:352.324 JLINK_WriteReg(R10, 0x00000000)
T0824 4291:352.346 - 0.032ms returns 0x00
T0824 4291:352.374 JLINK_WriteReg(R11, 0x00000000)
T0824 4291:352.396 - 0.033ms returns 0x00
T0824 4291:352.423 JLINK_WriteReg(R12, 0x00000000)
T0824 4291:352.445 - 0.032ms returns 0x00
T0824 4291:352.474 JLINK_WriteReg(R13 (SP), 0x20002000)
T0824 4291:352.497 - 0.034ms returns 0x00
T0824 4291:352.524 JLINK_WriteReg(R14, 0x20000001)
T0824 4291:352.546 - 0.032ms returns 0x00
T0824 4291:352.571 JLINK_WriteReg(R15 (PC), 0x200001DC)
T0824 4291:352.592 - 0.032ms returns 0x00
T0824 4291:352.619 JLINK_WriteReg(XPSR, 0x01000000)
T0824 4291:352.641 - 0.032ms returns 0x00
T0824 4291:352.666 JLINK_WriteReg(MSP, 0x20002000)
T0824 4291:352.687 - 0.032ms returns 0x00
T0824 4291:352.714 JLINK_WriteReg(PSP, 0x20002000)
T0824 4291:352.735 - 0.032ms returns 0x00
T0824 4291:352.760 JLINK_WriteReg(CFBP, 0x00000000)
T0824 4291:352.782 - 0.032ms returns 0x00
T0824 4291:352.815   JLINK_SetBPEx(Addr = 0x20000000, Type = 0xFFFFFFF2)
T0824 4291:352.856 - 0.061ms returns 0x0000000A
T0824 4291:352.893 JLINK_Go()
T0824 4291:352.953   CPU_ReadMem(4 bytes @ 0xE0001000)
T0824 4291:360.708 - 7.858ms
T0824 4291:360.791 JLINK_IsHalted()
T0824 4291:362.279 - 1.530ms returns FALSE
T0824 4291:383.880 JLINK_IsHalted()
T0824 4291:385.567 - 1.704ms returns FALSE
T0824 4291:386.825 JLINK_IsHalted()
T0824 4291:387.691 - 0.886ms returns FALSE
T0824 4291:388.971 JLINK_IsHalted()
T0824 4291:390.697 - 1.744ms returns FALSE
T0824 4291:391.910 JLINK_IsHalted()
T0824 4291:393.377 - 1.483ms returns FALSE
T0824 4291:394.742 JLINK_IsHalted()
T0824 4291:395.671 - 0.948ms returns FALSE
T0824 4291:396.801 JLINK_IsHalted()
T0824 4291:397.709 - 0.915ms returns FALSE
T0824 4291:398.818 JLINK_IsHalted()
T0824 4291:399.707 - 0.896ms returns FALSE
T0824 4291:401.789 JLINK_IsHalted()
T0824 4291:402.741 - 0.959ms returns FALSE
T0824 4291:404.726 JLINK_IsHalted()
T0824 4291:405.641 - 0.929ms returns FALSE
T0824 4291:407.692 JLINK_IsHalted()
T0824 4291:408.667 - 0.981ms returns FALSE
T0824 4291:409.754 JLINK_IsHalted()
T0824 4291:410.671 - 0.923ms returns FALSE
T0824 4291:412.838 JLINK_IsHalted()
T0824 4291:413.882 - 1.050ms returns FALSE
T0824 4291:415.685 JLINK_IsHalted()
T0824 4291:416.697 - 1.019ms returns FALSE
T0824 4291:418.738 JLINK_IsHalted()
T0824 4291:419.677 - 0.946ms returns FALSE
T0824 4291:421.773 JLINK_IsHalted()
T0824 4291:422.760 - 0.993ms returns FALSE
T0824 4291:424.758 JLINK_IsHalted()
T0824 4291:425.756 - 1.004ms returns FALSE
T0824 4291:427.748 JLINK_IsHalted()
T0824 4291:428.715 - 0.973ms returns FALSE
T0824 4291:430.738 JLINK_IsHalted()
T0824 4291:437.723   CPU_ReadMem(2 bytes @ 0x20000000)
T0824 4291:438.881 - 8.159ms returns TRUE
T0824 4291:438.909 JLINK_ReadReg(R15 (PC))
T0824 4291:438.917 - 0.011ms returns 0x20000000
T0824 4291:438.924 JLINK_ClrBPEx(BPHandle = 0x0000000A)
T0824 4291:438.929 - 0.008ms returns 0x00
T0824 4291:438.936 JLINK_ReadReg(R0)
T0824 4291:438.941 - 0.008ms returns 0x00000000
T0824 4291:439.325 JLINK_WriteMem(0x20000718, 0x00E8 Bytes, ...)
T0824 4291:439.339   Data:  DD F8 01 10 01 60 BD F8 05 10 81 80 20 88 80 1D ...
T0824 4291:439.355   CPU_WriteMem(232 bytes @ 0x20000718)
T0824 4291:443.301 - 3.984ms returns 0xE8
T0824 4291:443.316 JLINK_WriteMem(0x20000800, 0x0400 Bytes, ...)
T0824 4291:443.322   Data:  20 46 FF F7 DB FF 64 1C 04 2C F9 D3 10 BD 10 B5 ...
T0824 4291:443.335   CPU_WriteMem(1024 bytes @ 0x20000800)
T0824 4291:457.821 - 14.522ms returns 0x400
T0824 4291:457.847 JLINK_WriteMem(0x20000C00, 0x0400 Bytes, ...)
T0824 4291:457.854   Data:  C8 60 20 68 30 44 20 60 9D F8 00 00 FF F7 06 FC ...
T0824 4291:457.871   CPU_WriteMem(1024 bytes @ 0x20000C00)
T0824 4291:472.632 - 14.805ms returns 0x400
T0824 4291:472.667 JLINK_WriteMem(0x20001000, 0x0400 Bytes, ...)
T0824 4291:472.677   Data:  00 EB 84 02 D2 F8 40 95 C2 F8 40 85 51 46 38 68 ...
T0824 4291:472.699   CPU_WriteMem(1024 bytes @ 0x20001000)
T0824 4291:487.365 - 14.728ms returns 0x400
T0824 4291:487.418 JLINK_WriteMem(0x20001400, 0x0318 Bytes, ...)
T0824 4291:487.434   Data:  01 EA 05 03 04 EB 83 03 49 1C DB 68 42 F8 20 30 ...
T0824 4291:487.465   CPU_WriteMem(792 bytes @ 0x20001400)
T0824 4291:498.959 - 11.583ms returns 0x318
T0824 4291:499.044 JLINK_WriteReg(R0, 0x00027000)
T0824 4291:499.076 - 0.045ms returns 0x00
T0824 4291:499.107 JLINK_WriteReg(R1, 0x00001000)
T0824 4291:499.129 - 0.033ms returns 0x00
T0824 4291:499.156 JLINK_WriteReg(R2, 0x20000718)
T0824 4291:499.178 - 0.032ms returns 0x00
T0824 4291:499.202 JLINK_WriteReg(R3, 0x00000000)
T0824 4291:499.225 - 0.032ms returns 0x00
T0824 4291:499.251 JLINK_WriteReg(R4, 0x00000000)
T0824 4291:499.273 - 0.032ms returns 0x00
T0824 4291:499.297 JLINK_WriteReg(R5, 0x00000000)
T0824 4291:499.318 - 0.031ms returns 0x00
T0824 4291:499.344 JLINK_WriteReg(R6, 0x00000000)
T0824 4291:499.366 - 0.032ms returns 0x00
T0824 4291:499.390 JLINK_WriteReg(R7, 0x00000000)
T0824 4291:499.411 - 0.031ms returns 0x00
T0824 4291:499.438 JLINK_WriteReg(R8, 0x00000000)
T0824 4291:499.460 - 0.032ms returns 0x00
T0824 4291:499.484 JLINK_WriteReg(R9, 0x20000704)
T0824 4291:499.505 - 0.032ms returns 0x00
T0824 4291:499.532 JLINK_WriteReg(R10, 0x00000000)
T0824 4291:499.554 - 0.032ms returns 0x00
T0824 4291:499.577 JLINK_WriteReg(R11, 0x00000000)
T0824 4291:499.599 - 0.032ms returns 0x00
T0824 4291:499.626 JLINK_WriteReg(R12, 0x00000000)
T0824 4291:499.647 - 0.032ms returns 0x00
T0824 4291:499.672 JLINK_WriteReg(R13 (SP), 0x20002000)
T0824 4291:499.695 - 0.033ms returns 0x00
T0824 4291:499.721 JLINK_WriteReg(R14, 0x20000001)
T0824 4291:499.748 - 0.037ms returns 0x00
T0824 4291:499.772 JLINK_WriteReg(R15 (PC), 0x200001DC)
T0824 4291:499.794 - 0.032ms returns 0x00
T0824 4291:499.821 JLINK_WriteReg(XPSR, 0x01000000)
T0824 4291:499.843 - 0.032ms returns 0x00
T0824 4291:499.867 JLINK_WriteReg(MSP, 0x20002000)
T0824 4291:499.888 - 0.032ms returns 0x00
T0824 4291:499.915 JLINK_WriteReg(PSP, 0x20002000)
T0824 4291:499.936 - 0.032ms returns 0x00
T0824 4291:499.961 JLINK_WriteReg(CFBP, 0x00000000)
T0824 4291:499.982 - 0.031ms returns 0x00
T0824 4291:500.012   JLINK_SetBPEx(Addr = 0x20000000, Type = 0xFFFFFFF2)
T0824 4291:500.046 - 0.047ms returns 0x0000000B
T0824 4291:500.074 JLINK_Go()
T0824 4291:500.119   CPU_ReadMem(4 bytes @ 0xE0001000)
T0824 4291:508.073 - 8.043ms
T0824 4291:508.149 JLINK_IsHalted()
T0824 4291:509.585 - 1.478ms returns FALSE
T0824 4291:523.704 JLINK_IsHalted()
T0824 4291:524.834 - 1.147ms returns FALSE
T0824 4291:526.695 JLINK_IsHalted()
T0824 4291:527.765 - 1.086ms returns FALSE
T0824 4291:529.729 JLINK_IsHalted()
T0824 4291:531.051 - 1.339ms returns FALSE
T0824 4291:532.816 JLINK_IsHalted()
T0824 4291:534.142 - 1.343ms returns FALSE
T0824 4291:535.687 JLINK_IsHalted()
T0824 4291:536.796 - 1.124ms returns FALSE
T0824 4291:538.671 JLINK_IsHalted()
T0824 4291:539.747 - 1.092ms returns FALSE
T0824 4291:541.638 JLINK_IsHalted()
T0824 4291:542.610 - 0.987ms returns FALSE
T0824 4291:543.774 JLINK_IsHalted()
T0824 4291:544.712 - 0.944ms returns FALSE
T0824 4291:546.693 JLINK_IsHalted()
T0824 4291:547.672 - 0.984ms returns FALSE
T0824 4291:549.606 JLINK_IsHalted()
T0824 4291:550.589 - 0.995ms returns FALSE
T0824 4291:552.765 JLINK_IsHalted()
T0824 4291:553.729 - 0.971ms returns FALSE
T0824 4291:555.707 JLINK_IsHalted()
T0824 4291:556.668 - 0.971ms returns FALSE
T0824 4291:558.581 JLINK_IsHalted()
T0824 4291:559.539 - 0.965ms returns FALSE
T0824 4291:561.651 JLINK_IsHalted()
T0824 4291:562.573 - 0.929ms returns FALSE
T0824 4291:564.675 JLINK_IsHalted()
T0824 4291:565.495 - 0.827ms returns FALSE
T0824 4291:566.560 JLINK_IsHalted()
T0824 4291:567.536 - 0.982ms returns FALSE
T0824 4291:569.560 JLINK_IsHalted()
T0824 4291:570.478 - 0.927ms returns FALSE
T0824 4291:571.549 JLINK_IsHalted()
T0824 4291:572.495 - 0.962ms returns FALSE
T0824 4291:574.585 JLINK_IsHalted()
T0824 4291:575.467 - 0.895ms returns FALSE
T0824 4291:576.581 JLINK_IsHalted()
T0824 4291:577.489 - 0.916ms returns FALSE
T0824 4291:579.533 JLINK_IsHalted()
T0824 4291:586.474   CPU_ReadMem(2 bytes @ 0x20000000)
T0824 4291:587.420 - 7.900ms returns TRUE
T0824 4291:587.449 JLINK_ReadReg(R15 (PC))
T0824 4291:587.465 - 0.023ms returns 0x20000000
T0824 4291:587.483 JLINK_ClrBPEx(BPHandle = 0x0000000B)
T0824 4291:587.507 - 0.033ms returns 0x00
T0824 4291:587.532 JLINK_ReadReg(R0)
T0824 4291:587.550 - 0.028ms returns 0x00000000
T0824 4291:588.704 JLINK_WriteMem(0x20000718, 0x00E8 Bytes, ...)
T0824 4291:588.749   Data:  28 68 08 44 70 BD 10 B5 0A 88 49 88 8A 42 03 D1 ...
T0824 4291:588.792   CPU_WriteMem(232 bytes @ 0x20000718)
T0824 4291:592.947 - 4.261ms returns 0xE8
T0824 4291:592.979 JLINK_WriteMem(0x20000800, 0x0400 Bytes, ...)
T0824 4291:592.996   Data:  B0 FB F1 F1 2A 68 10 68 43 1C 13 60 01 70 9D F8 ...
T0824 4291:593.048   CPU_WriteMem(1024 bytes @ 0x20000800)
T0824 4291:607.618 - 14.671ms returns 0x400
T0824 4291:607.672 JLINK_WriteMem(0x20000C00, 0x0400 Bytes, ...)
T0824 4291:607.698   Data:  01 22 01 91 FF F7 D4 FF 1C BD 1C B5 00 21 00 91 ...
T0824 4291:607.745   CPU_WriteMem(1024 bytes @ 0x20000C00)
T0824 4291:622.614 - 14.985ms returns 0x400
T0824 4291:622.690 JLINK_WriteMem(0x20001000, 0x0400 Bytes, ...)
T0824 4291:622.717   Data:  08 08 00 26 0F E0 02 98 43 46 00 EA 05 01 40 1C ...
T0824 4291:622.770   CPU_WriteMem(1024 bytes @ 0x20001000)
T0824 4291:637.491 - 14.845ms returns 0x400
T0824 4291:637.569 JLINK_WriteMem(0x20001400, 0x0318 Bytes, ...)
T0824 4291:637.596   Data:  60 A5 02 00 C4 2D 00 20 08 B5 00 20 8D F8 00 00 ...
T0824 4291:637.649   CPU_WriteMem(792 bytes @ 0x20001400)
T0824 4291:649.355 - 11.829ms returns 0x318
T0824 4291:649.448 JLINK_WriteReg(R0, 0x00028000)
T0824 4291:649.483 - 0.047ms returns 0x00
T0824 4291:649.513 JLINK_WriteReg(R1, 0x00001000)
T0824 4291:649.535 - 0.033ms returns 0x00
T0824 4291:649.560 JLINK_WriteReg(R2, 0x20000718)
T0824 4291:649.582 - 0.032ms returns 0x00
T0824 4291:649.609 JLINK_WriteReg(R3, 0x00000000)
T0824 4291:649.631 - 0.033ms returns 0x00
T0824 4291:649.656 JLINK_WriteReg(R4, 0x00000000)
T0824 4291:649.677 - 0.031ms returns 0x00
T0824 4291:649.703 JLINK_WriteReg(R5, 0x00000000)
T0824 4291:649.725 - 0.032ms returns 0x00
T0824 4291:649.750 JLINK_WriteReg(R6, 0x00000000)
T0824 4291:649.770 - 0.031ms returns 0x00
T0824 4291:649.797 JLINK_WriteReg(R7, 0x00000000)
T0824 4291:649.819 - 0.032ms returns 0x00
T0824 4291:649.843 JLINK_WriteReg(R8, 0x00000000)
T0824 4291:649.865 - 0.032ms returns 0x00
T0824 4291:649.892 JLINK_WriteReg(R9, 0x20000704)
T0824 4291:649.913 - 0.032ms returns 0x00
T0824 4291:649.938 JLINK_WriteReg(R10, 0x00000000)
T0824 4291:649.960 - 0.032ms returns 0x00
T0824 4291:649.986 JLINK_WriteReg(R11, 0x00000000)
T0824 4291:650.008 - 0.032ms returns 0x00
T0824 4291:650.032 JLINK_WriteReg(R12, 0x00000000)
T0824 4291:650.054 - 0.031ms returns 0x00
T0824 4291:650.080 JLINK_WriteReg(R13 (SP), 0x20002000)
T0824 4291:650.105 - 0.034ms returns 0x00
T0824 4291:650.129 JLINK_WriteReg(R14, 0x20000001)
T0824 4291:650.151 - 0.032ms returns 0x00
T0824 4291:650.178 JLINK_WriteReg(R15 (PC), 0x200001DC)
T0824 4291:650.200 - 0.033ms returns 0x00
T0824 4291:650.224 JLINK_WriteReg(XPSR, 0x01000000)
T0824 4291:650.246 - 0.032ms returns 0x00
T0824 4291:650.273 JLINK_WriteReg(MSP, 0x20002000)
T0824 4291:650.295 - 0.032ms returns 0x00
T0824 4291:650.320 JLINK_WriteReg(PSP, 0x20002000)
T0824 4291:650.341 - 0.031ms returns 0x00
T0824 4291:650.368 JLINK_WriteReg(CFBP, 0x00000000)
T0824 4291:650.390 - 0.033ms returns 0x00
T0824 4291:650.421   JLINK_SetBPEx(Addr = 0x20000000, Type = 0xFFFFFFF2)
T0824 4291:650.454 - 0.047ms returns 0x0000000C
T0824 4291:650.482 JLINK_Go()
T0824 4291:650.529   CPU_ReadMem(4 bytes @ 0xE0001000)
T0824 4291:658.235 - 7.770ms
T0824 4291:658.264 JLINK_IsHalted()
T0824 4291:659.307 - 1.060ms returns FALSE
T0824 4291:661.651 JLINK_IsHalted()
T0824 4291:662.596 - 0.963ms returns FALSE
T0824 4291:664.476 JLINK_IsHalted()
T0824 4291:665.552 - 1.097ms returns FALSE
T0824 4291:667.667 JLINK_IsHalted()
T0824 4291:668.871 - 1.224ms returns FALSE
T0824 4291:671.457 JLINK_IsHalted()
T0824 4291:672.592 - 1.155ms returns FALSE
T0824 4291:674.553 JLINK_IsHalted()
T0824 4291:675.848 - 1.315ms returns FALSE
T0824 4291:677.579 JLINK_IsHalted()
T0824 4291:678.785 - 1.227ms returns FALSE
T0824 4291:680.439 JLINK_IsHalted()
T0824 4291:681.560 - 1.142ms returns FALSE
T0824 4291:683.485 JLINK_IsHalted()
T0824 4291:684.636 - 1.174ms returns FALSE
T0824 4291:686.496 JLINK_IsHalted()
T0824 4291:687.584 - 1.112ms returns FALSE
T0824 4291:690.505 JLINK_IsHalted()
T0824 4291:691.548 - 1.068ms returns FALSE
T0824 4291:693.570 JLINK_IsHalted()
T0824 4291:694.867 - 1.322ms returns FALSE
T0824 4291:696.419 JLINK_IsHalted()
T0824 4291:697.572 - 1.178ms returns FALSE
T0824 4291:699.508 JLINK_IsHalted()
T0824 4291:700.698 - 1.216ms returns FALSE
T0824 4291:702.414 JLINK_IsHalted()
T0824 4291:703.473 - 1.087ms returns FALSE
T0824 4291:705.367 JLINK_IsHalted()
T0824 4291:706.369 - 1.017ms returns FALSE
T0824 4291:708.431 JLINK_IsHalted()
T0824 4291:709.390 - 0.973ms returns FALSE
T0824 4291:711.338 JLINK_IsHalted()
T0824 4291:712.353 - 1.026ms returns FALSE
T0824 4291:714.369 JLINK_IsHalted()
T0824 4291:715.403 - 1.049ms returns FALSE
T0824 4291:717.326 JLINK_IsHalted()
T0824 4291:718.331 - 1.023ms returns FALSE
T0824 4291:720.322 JLINK_IsHalted()
T0824 4291:721.501 - 1.210ms returns FALSE
T0824 4291:723.321 JLINK_IsHalted()
T0824 4291:724.321 - 1.019ms returns FALSE
T0824 4291:726.309 JLINK_IsHalted()
T0824 4291:727.370 - 1.079ms returns FALSE
T0824 4291:729.299 JLINK_IsHalted()
T0824 4291:736.427   CPU_ReadMem(2 bytes @ 0x20000000)
T0824 4291:737.422 - 8.156ms returns TRUE
T0824 4291:737.478 JLINK_ReadReg(R15 (PC))
T0824 4291:737.507 - 0.041ms returns 0x20000000
